
T0CC8 000:073 SEGGER J-Link V6.10i Log File (0000ms, 0036ms total)
T0CC8 000:073 DLL Compiled: Oct 25 2016 19:31:51 (0000ms, 0036ms total)
T0CC8 000:073 Logging started @ 2020-01-21 15:17 (0000ms, 0036ms total)
T0CC8 000:073 JLINK_SetWarnOutHandler(...) (0001ms, 0037ms total)
T0CC8 000:074 JLINK_OpenEx(...)
Firmware: J-Link V9 compiled Apr 20 2018 16:47:26
Hardware: V9.20
S/N: 20281318
Feature(s): GDB, RDI, FlashBP, FlashDL, JFlash, RDDIWEBSRV Webserver running on local port 19080 (0023ms, 0060ms total)
T0CC8 000:074   returns O.K. (0023ms, 0060ms total)
T0CC8 000:097 JLINK_SetErrorOutHandler(...) (0000ms, 0060ms total)
T0CC8 000:097 JLINK_ExecCommand("ProjectFile = "D:\Project\²âÊÔ¹¤³Ì\FM33A0XX_TesterV1.0\JLinkSettings.ini"", ...). Device "CORTEX-M0" selected.  returns 0x00 (0107ms, 0167ms total)
T0CC8 000:207 JLINK_ExecCommand("Device = FM33A04XX", ...). Device "CORTEX-M0" selected.  returns 0x00 (0003ms, 0170ms total)
T0CC8 000:210 JLINK_ExecCommand("DisableConnectionTimeout", ...).   returns 0x01 (0000ms, 0170ms total)
T0CC8 000:210 JLINK_GetHardwareVersion()  returns 0x16760 (0000ms, 0170ms total)
T0CC8 000:210 JLINK_GetDLLVersion()  returns 61009 (0000ms, 0170ms total)
T0CC8 000:210 JLINK_GetFirmwareString(...) (0000ms, 0170ms total)
T0CC8 000:217 JLINK_GetDLLVersion()  returns 61009 (0000ms, 0170ms total)
T0CC8 000:217 JLINK_GetCompileDateTime() (0000ms, 0170ms total)
T0CC8 000:222 JLINK_GetFirmwareString(...) (0000ms, 0170ms total)
T0CC8 000:224 JLINK_GetHardwareVersion()  returns 0x16760 (0000ms, 0170ms total)
T0CC8 000:231 JLINK_TIF_Select(JLINKARM_TIF_SWD)  returns 0x00 (0003ms, 0173ms total)
T0CC8 000:234 JLINK_SetSpeed(1000) (0002ms, 0175ms total)
T0CC8 000:236 JLINK_GetId() >0x108 TIF>Found SWD-DP with ID 0x0BB11477 >0x0D TIF> >0x28 TIF> >0x0D TIF> >0x28 TIF> >0x0D TIF> >0x28 TIF> >0x0D TIF> >0x28 TIF> >0x0D TIF> >0x21 TIF> >0x0D TIF> >0x28 TIF> >0x0D TIF> >0x28 TIF> >0x0D TIF> >0x21 TIF> >0x0D TIF> >0x21 TIF> >0x0D TIF> >0x21 TIF>AP-IDR: 0x04770021, Type: AHB-AP >0x0D TIF> >0x28 TIF> >0x0D TIF> >0x28 TIF> >0x0D TIF> >0x28 TIF> >0x0D TIF> >0x21 TIF> >0x0D TIF> >0x21 TIF> >0x0D TIF> >0x28 TIF> >0x0D TIF> >0x21 TIF> >0x0D TIF> >0x21 TIF>
Unknown core, assuming Cortex-M0Found Cortex-M0 r0p0, Little endian. -- CPU_ReadMem(4 bytes @ 0xE000EDF0) -- CPU_WriteMem(4 bytes @ 0xE000EDF0) -- CPU_ReadMem(4 bytes @ 0xE0002000)FPUnit: 4 code (BP) slots and 0 literal slots -- CPU_ReadMem(4 bytes @ 0xE000EDFC) -- CPU_WriteMem(4 bytes @ 0xE000EDFC) -- CPU_ReadMem(4 bytes @ 0xE0001000) -- CPU_WriteMem(4 bytes @ 0xE0001000)CoreSight components:ROMTbl 0 @ E00FF000 -- CPU_ReadMem(16 bytes @ 0xE00FF000) -- CPU_ReadMem(16 bytes @ 0xE000EFF0)
 -- CPU_ReadMem(16 bytes @ 0xE000EFE0)ROMTbl 0 [0]: FFF0F000, CID: B105E00D, PID: 000BB00D SCS -- CPU_ReadMem(16 bytes @ 0xE0001FF0) -- CPU_ReadMem(16 bytes @ 0xE0001FE0)ROMTbl 0 [1]: FFF02000, CID: B105E00D, PID: 000BB00A DWT -- CPU_ReadMem(16 bytes @ 0xE0002FF0) -- CPU_ReadMem(16 bytes @ 0xE0002FE0)ROMTbl 0 [2]: FFF03000, CID: B105E00D, PID: 000BB00B FPB >0x0D TIF> >0x21 TIF>  returns 0x0BB11477 (0084ms, 0259ms total)
T0CC8 000:321 JLINK_GetDLLVersion()  returns 61009 (0000ms, 0259ms total)
T0CC8 000:321 JLINK_CORE_GetFound()  returns 0x60000FF (0000ms, 0259ms total)
T0CC8 000:321 JLINK_GetDebugInfo(0x100) -- Value=0xE00FF000  returns 0x00 (0000ms, 0259ms total)
T0CC8 000:323 JLINK_GetDebugInfo(0x100) -- Value=0xE00FF000  returns 0x00 (0000ms, 0259ms total)
T0CC8 000:323 JLINK_GetDebugInfo(0x101) -- Value=0x00000000  returns 0x00 (0000ms, 0259ms total)
T0CC8 000:323 JLINK_ReadMem (0xE0041FF0, 0x0010 Bytes, ...) -- CPU is running -- CPU_ReadMem(16 bytes @ 0xE0041FF0) - Data: 00 00 00 00 00 00 00 00 00 00 00 00 00 00 00 00  returns 0x00 (0002ms, 0261ms total)
T0CC8 000:325 JLINK_GetDebugInfo(0x102) -- Value=0x00000000  returns 0x00 (0000ms, 0261ms total)
T0CC8 000:325 JLINK_GetDebugInfo(0x103) -- Value=0x00000000  returns 0x00 (0000ms, 0261ms total)
T0CC8 000:325 JLINK_ReadMem (0xE0040FF0, 0x0010 Bytes, ...) -- CPU is running -- CPU_ReadMem(16 bytes @ 0xE0040FF0) - Data: 00 00 00 00 00 00 00 00 00 00 00 00 00 00 00 00  returns 0x00 (0002ms, 0263ms total)
T0CC8 000:327 JLINK_GetDebugInfo(0x104) -- Value=0xE0000000  returns 0x00 (0000ms, 0263ms total)
T0CC8 000:327 JLINK_GetDebugInfo(0x105) -- Value=0xE0001000  returns 0x00 (0000ms, 0263ms total)
T0CC8 000:327 JLINK_GetDebugInfo(0x106) -- Value=0xE0002000  returns 0x00 (0000ms, 0263ms total)
T0CC8 000:327 JLINK_GetDebugInfo(0x107) -- Value=0xE000E000  returns 0x00 (0000ms, 0263ms total)
T0CC8 000:327 JLINK_GetDebugInfo(0x10C) -- Value=0xE000EDF0  returns 0x00 (0000ms, 0263ms total)
T0CC8 000:327 JLINK_ReadMemU32(0xE000ED00, 0x0001 Items, ...) -- CPU is running -- CPU_ReadMem(4 bytes @ 0xE000ED00) - Data: 00 C3 0C 41  returns 0x01 (0001ms, 0264ms total)
T0CC8 000:328 JLINK_SetResetType(JLINKARM_RESET_TYPE_ADI)  returns JLINKARM_RESET_TYPE_NORMAL (0000ms, 0264ms total)
T0CC8 000:328 JLINK_Reset() -- CPU is running -- CPU_WriteMem(4 bytes @ 0xE000EDF0) -- CPU is running -- CPU_WriteMem(4 bytes @ 0xE000EDFC)RESET (pin 15) high, but should be low. Please check target hardware. -- CPU_WriteMem(4 bytes @ 0xE000EDF0) -- CPU_WriteMem(4 bytes @ 0xE000EDFC) -- CPU_ReadMem(4 bytes @ 0xE000EDF0) -- CPU_WriteMem(4 bytes @ 0xE000EDFC) -- CPU_WriteMem(4 bytes @ 0xE000ED0C) -- CPU_ReadMem(4 bytes @ 0xE000EDF0) -- CPU_ReadMem(4 bytes @ 0xE000EDF0) -- CPU_WriteMem(4 bytes @ 0xE000EDF0)
 -- CPU_WriteMem(4 bytes @ 0xE000EDFC) -- CPU is running -- CPU_ReadMem(4 bytes @ 0xE000EDF0) -- CPU_WriteMem(4 bytes @ 0xE0002000) -- CPU_ReadMem(4 bytes @ 0xE000EDFC) -- CPU_ReadMem(4 bytes @ 0xE0001000) -- CPU_WriteMem(4 bytes @ 0xE0001000) (0372ms, 0636ms total)
T0CC8 000:701 JLINK_Halt()  returns 0x00 (0000ms, 0636ms total)
T0CC8 000:701 JLINK_IsHalted()  returns TRUE (0000ms, 0636ms total)
T0CC8 000:701 JLINK_ReadMemU32(0xE000EDF0, 0x0001 Items, ...) -- CPU_ReadMem(4 bytes @ 0xE000EDF0) - Data: 03 00 03 00  returns 0x01 (0001ms, 0637ms total)
T0CC8 000:702 JLINK_WriteU32(0xE000EDF0, 0xA05F0003) -- CPU_WriteMem(4 bytes @ 0xE000EDF0)  returns 0x00 (0001ms, 0638ms total)
T0CC8 000:703 JLINK_WriteU32(0xE000EDFC, 0x01000000) -- CPU_WriteMem(4 bytes @ 0xE000EDFC)  returns 0x00 (0001ms, 0639ms total)
T0CC8 000:722 JLINK_GetHWStatus(...)  returns 0x00 (0001ms, 0640ms total)
T0CC8 000:735 JLINK_GetNumBPUnits(Type = 0xFFFFFF00)  returns 0x04 (0000ms, 0640ms total)
T0CC8 000:735 JLINK_GetNumBPUnits(Type = 0xF0)  returns 0x2000 (0000ms, 0640ms total)
T0CC8 000:735 JLINK_GetNumWPUnits()  returns 0x01 (0000ms, 0640ms total)
T0CC8 000:746 JLINK_GetSpeed()  returns 0x3E8 (0000ms, 0640ms total)
T0CC8 000:750 JLINK_ReadMemU32(0xE000E004, 0x0001 Items, ...) -- CPU_ReadMem(4 bytes @ 0xE000E004) - Data: 00 00 00 00  returns 0x01 (0001ms, 0641ms total)
T0CC8 000:759 JLINK_ReadReg(R0)  returns 0x40000C40 (0000ms, 0641ms total)
T0CC8 000:759 JLINK_ReadReg(R1)  returns 0x00000200 (0000ms, 0641ms total)
T0CC8 000:759 JLINK_ReadReg(R2)  returns 0x00000000 (0000ms, 0641ms total)
T0CC8 000:759 JLINK_ReadReg(R3)  returns 0x00000008 (0000ms, 0641ms total)
T0CC8 000:759 JLINK_ReadReg(R4)  returns 0x00000001 (0000ms, 0641ms total)
T0CC8 000:759 JLINK_ReadReg(R5)  returns 0x00000000 (0000ms, 0641ms total)
T0CC8 000:759 JLINK_ReadReg(R6)  returns 0x00000000 (0000ms, 0641ms total)
T0CC8 000:759 JLINK_ReadReg(R7)  returns 0x00000000 (0000ms, 0641ms total)
T0CC8 000:759 JLINK_ReadReg(R8)  returns 0x00000000 (0000ms, 0641ms total)
T0CC8 000:759 JLINK_ReadReg(R9)  returns 0x20000180 (0000ms, 0641ms total)
T0CC8 000:759 JLINK_ReadReg(R10)  returns 0x000051D4 (0000ms, 0641ms total)
T0CC8 000:759 JLINK_ReadReg(R11)  returns 0x000051D4 (0000ms, 0641ms total)
T0CC8 000:759 JLINK_ReadReg(R12)  returns 0x00000000 (0000ms, 0641ms total)
T0CC8 000:759 JLINK_ReadReg(R13 (SP))  returns 0x20002AF8 (0000ms, 0641ms total)
T0CC8 000:759 JLINK_ReadReg(R14)  returns 0x000041A7 (0000ms, 0641ms total)
T0CC8 000:759 JLINK_ReadReg(R15 (PC))  returns 0x00000148 (0000ms, 0641ms total)
T0CC8 000:759 JLINK_ReadReg(XPSR)  returns 0xC1000000 (0000ms, 0641ms total)
T0CC8 000:759 JLINK_ReadReg(MSP)  returns 0x20002AF8 (0000ms, 0641ms total)
T0CC8 000:759 JLINK_ReadReg(PSP)  returns 0x20001000 (0000ms, 0641ms total)
T0CC8 000:759 JLINK_ReadReg(CFBP)  returns 0x00000000 (0000ms, 0641ms total)
T0CC8 000:785 JLINK_WriteMem(0x4000022C, 0x0004 Bytes, ...) - Data: 20 00 06 00 -- CPU_WriteMem(4 bytes @ 0x4000022C)  returns 0x04 (0002ms, 0643ms total)
T0CC8 000:794 JLINK_WriteMem(0x40001014, 0x0004 Bytes, ...) - Data: 00 02 00 80 -- CPU_WriteMem(4 bytes @ 0x40001014)  returns 0x04 (0001ms, 0644ms total)
T0CC8 000:811 JLINK_WriteMem(0x40001014, 0x0004 Bytes, ...) - Data: 01 02 00 80 -- CPU_WriteMem(4 bytes @ 0x40001014)  returns 0x04 (0002ms, 0647ms total)
T0CC8 000:825 JLINK_WriteMem(0x40001018, 0x0004 Bytes, ...) - Data: 96 96 96 96 -- CPU_WriteMem(4 bytes @ 0x40001018)  returns 0x04 (0001ms, 0648ms total)
T0CC8 000:841 JLINK_WriteMem(0x40001018, 0x0004 Bytes, ...) - Data: 7D 7D 7D 7D -- CPU_WriteMem(4 bytes @ 0x40001018)  returns 0x04 (0001ms, 0650ms total)
T0CC8 000:856 JLINK_WriteMem(0x00000000, 0x0004 Bytes, ...) - Data: CD AB 34 12 -- CPU_WriteMem(4 bytes @ 0x00000000)  returns 0x04 (0000ms, 0650ms total)
T0CC8 002:370 JLINK_WriteMem(0x40001018, 0x0004 Bytes, ...) - Data: 00 00 00 00 -- CPU_WriteMem(4 bytes @ 0x40001018)  returns 0x04 (0000ms, 0651ms total)
T0CC8 002:370 JLINK_ReadMem (0x40001014, 0x0004 Bytes, ...) -- CPU_ReadMem(4 bytes @ 0x40001014) - Data: 00 02 00 80  returns 0x00 (0001ms, 0652ms total)
T0CC8 002:373 JLINK_Halt()  returns 0x00 (0001ms, 0653ms total)
T0CC8 002:374 JLINK_IsHalted()  returns TRUE (0000ms, 0653ms total)
T0CC8 002:377 JLINK_WriteMem(0x20000000, 0x0184 Bytes, ...) - Data: 00 BE 0A E0 0D 78 2D 06 68 40 08 24 40 00 00 D3 ... -- CPU_WriteMem(388 bytes @ 0x20000000)  returns 0x184 (0006ms, 0659ms total)
T0CC8 002:384 JLINK_WriteReg(R0, 0x00000000)  returns 0x00 (0000ms, 0659ms total)
T0CC8 002:384 JLINK_WriteReg(R1, 0x00B71B00)  returns 0x00 (0000ms, 0659ms total)
T0CC8 002:384 JLINK_WriteReg(R2, 0x00000002)  returns 0x00 (0000ms, 0659ms total)
T0CC8 002:384 JLINK_WriteReg(R3, 0x00000000)  returns 0x00 (0000ms, 0659ms total)
T0CC8 002:384 JLINK_WriteReg(R4, 0x00000000)  returns 0x00 (0000ms, 0659ms total)
T0CC8 002:384 JLINK_WriteReg(R5, 0x00000000)  returns 0x00 (0000ms, 0659ms total)
T0CC8 002:384 JLINK_WriteReg(R6, 0x00000000)  returns 0x00 (0000ms, 0659ms total)
T0CC8 002:384 JLINK_WriteReg(R7, 0x00000000)  returns 0x00 (0000ms, 0659ms total)
T0CC8 002:384 JLINK_WriteReg(R8, 0x00000000)  returns 0x00 (0000ms, 0659ms total)
T0CC8 002:384 JLINK_WriteReg(R9, 0x20000180)  returns 0x00 (0000ms, 0659ms total)
T0CC8 002:384 JLINK_WriteReg(R10, 0x00000000)  returns 0x00 (0000ms, 0659ms total)
T0CC8 002:384 JLINK_WriteReg(R11, 0x00000000)  returns 0x00 (0000ms, 0659ms total)
T0CC8 002:384 JLINK_WriteReg(R12, 0x00000000)  returns 0x00 (0000ms, 0659ms total)
T0CC8 002:384 JLINK_WriteReg(R13 (SP), 0x20001000)  returns 0x00 (0000ms, 0659ms total)
T0CC8 002:384 JLINK_WriteReg(R14, 0x20000001)  returns 0x00 (0000ms, 0659ms total)
T0CC8 002:384 JLINK_WriteReg(R15 (PC), 0x2000005E)  returns 0x00 (0000ms, 0659ms total)
T0CC8 002:384 JLINK_WriteReg(XPSR, 0x01000000)  returns 0x00 (0000ms, 0659ms total)
T0CC8 002:384 JLINK_WriteReg(MSP, 0x20001000)  returns 0x00 (0000ms, 0659ms total)
T0CC8 002:384 JLINK_WriteReg(PSP, 0x20001000)  returns 0x00 (0000ms, 0659ms total)
T0CC8 002:384 JLINK_WriteReg(CFBP, 0x00000000)  returns 0x00 (0000ms, 0659ms total)
T0CC8 002:384 JLINK_SetBPEx(Addr = 0x20000000, Type = 0xFFFFFFF2) -- CPU_ReadMem(4 bytes @ 0x20000000) -- CPU_WriteMem(4 bytes @ 0x20000000) -- CPU_ReadMem(4 bytes @ 0x20000000) -- CPU_WriteMem(4 bytes @ 0x20000000) -- CPU_ReadMem(2 bytes @ 0x20000000)  returns 0x00000001 (0005ms, 0664ms total)
T0CC8 002:389 JLINK_Go() -- CPU_WriteMem(2 bytes @ 0x20000000) -- CPU_ReadMem(4 bytes @ 0xE0001000) -- CPU_WriteMem(4 bytes @ 0xE0001000) -- CPU_WriteMem(4 bytes @ 0xE0002008) -- CPU_WriteMem(4 bytes @ 0xE000200C) -- CPU_WriteMem(4 bytes @ 0xE0002010) -- CPU_WriteMem(4 bytes @ 0xE0002014) -- CPU_WriteMem(4 bytes @ 0xE0001004) (0011ms, 0675ms total)
T0CC8 002:400 JLINK_IsHalted() -- CPU_ReadMem(2 bytes @ 0x20000000)  returns TRUE (0008ms, 0683ms total)
T0CC8 002:408 JLINK_ReadReg(R15 (PC))  returns 0x20000000 (0000ms, 0675ms total)
T0CC8 002:408 JLINK_ClrBPEx(BPHandle = 0x00000001)  returns 0x00 (0000ms, 0675ms total)
T0CC8 002:408 JLINK_ReadReg(R0)  returns 0x00000000 (0000ms, 0675ms total)
T0CC8 002:409 JLINK_WriteMem(0x20000184, 0x027C Bytes, ...) - Data: F8 2A 00 20 49 01 00 00 51 01 00 00 53 01 00 00 ... -- CPU_WriteMem(636 bytes @ 0x20000184)  returns 0x27C (0009ms, 0684ms total)
T0CC8 002:418 JLINK_WriteMem(0x20000400, 0x0184 Bytes, ...) - Data: 0C D3 89 01 92 11 8B 42 08 D3 89 01 92 11 8B 42 ... -- CPU_WriteMem(388 bytes @ 0x20000400)  returns 0x184 (0006ms, 0690ms total)
T0CC8 002:424 JLINK_WriteReg(R0, 0x00000000)  returns 0x00 (0000ms, 0690ms total)
T0CC8 002:424 JLINK_WriteReg(R1, 0x00000400)  returns 0x00 (0000ms, 0690ms total)
T0CC8 002:424 JLINK_WriteReg(R2, 0x20000184)  returns 0x00 (0000ms, 0690ms total)
T0CC8 002:424 JLINK_WriteReg(R3, 0x00000000)  returns 0x00 (0000ms, 0690ms total)
T0CC8 002:424 JLINK_WriteReg(R4, 0x00000000)  returns 0x00 (0000ms, 0690ms total)
T0CC8 002:425 JLINK_WriteReg(R5, 0x00000000)  returns 0x00 (0000ms, 0691ms total)
T0CC8 002:425 JLINK_WriteReg(R6, 0x00000000)  returns 0x00 (0000ms, 0691ms total)
T0CC8 002:425 JLINK_WriteReg(R7, 0x00000000)  returns 0x00 (0000ms, 0691ms total)
T0CC8 002:425 JLINK_WriteReg(R8, 0x00000000)  returns 0x00 (0000ms, 0691ms total)
T0CC8 002:425 JLINK_WriteReg(R9, 0x20000180)  returns 0x00 (0000ms, 0691ms total)
T0CC8 002:425 JLINK_WriteReg(R10, 0x00000000)  returns 0x00 (0000ms, 0691ms total)
T0CC8 002:425 JLINK_WriteReg(R11, 0x00000000)  returns 0x00 (0000ms, 0691ms total)
T0CC8 002:425 JLINK_WriteReg(R12, 0x00000000)  returns 0x00 (0000ms, 0691ms total)
T0CC8 002:425 JLINK_WriteReg(R13 (SP), 0x20001000)  returns 0x00 (0000ms, 0691ms total)
T0CC8 002:425 JLINK_WriteReg(R14, 0x20000001)  returns 0x00 (0000ms, 0691ms total)
T0CC8 002:425 JLINK_WriteReg(R15 (PC), 0x20000104)  returns 0x00 (0000ms, 0691ms total)
T0CC8 002:425 JLINK_WriteReg(XPSR, 0x01000000)  returns 0x00 (0000ms, 0691ms total)
T0CC8 002:425 JLINK_WriteReg(MSP, 0x20001000)  returns 0x00 (0000ms, 0691ms total)
T0CC8 002:425 JLINK_WriteReg(PSP, 0x20001000)  returns 0x00 (0000ms, 0691ms total)
T0CC8 002:425 JLINK_WriteReg(CFBP, 0x00000000)  returns 0x00 (0000ms, 0691ms total)
T0CC8 002:425 JLINK_SetBPEx(Addr = 0x20000000, Type = 0xFFFFFFF2)  returns 0x00000002 (0000ms, 0691ms total)
T0CC8 002:425 JLINK_Go() -- CPU_ReadMem(4 bytes @ 0xE0001000) -- CPU_WriteMem(4 bytes @ 0xE0001000) (0006ms, 0697ms total)
T0CC8 002:431 JLINK_IsHalted()  returns FALSE (0001ms, 0698ms total)
T0CC8 002:439 JLINK_IsHalted()  returns FALSE (0001ms, 0698ms total)
T0CC8 002:441 JLINK_IsHalted()  returns FALSE (0000ms, 0697ms total)
T0CC8 002:442 JLINK_IsHalted()  returns FALSE (0000ms, 0697ms total)
T0CC8 002:443 JLINK_IsHalted()  returns FALSE (0000ms, 0697ms total)
T0CC8 002:444 JLINK_IsHalted()  returns FALSE (0000ms, 0697ms total)
T0CC8 002:445 JLINK_IsHalted()  returns FALSE (0001ms, 0698ms total)
T0CC8 002:447 JLINK_IsHalted()  returns FALSE (0000ms, 0697ms total)
T0CC8 002:448 JLINK_IsHalted()  returns FALSE (0000ms, 0697ms total)
T0CC8 002:449 JLINK_IsHalted()  returns FALSE (0000ms, 0697ms total)
T0CC8 002:450 JLINK_IsHalted()  returns FALSE (0000ms, 0697ms total)
T0CC8 002:451 JLINK_IsHalted()  returns FALSE (0000ms, 0697ms total)
T0CC8 002:452 JLINK_IsHalted()  returns FALSE (0000ms, 0697ms total)
T0CC8 002:453 JLINK_IsHalted()  returns FALSE (0000ms, 0697ms total)
T0CC8 002:454 JLINK_IsHalted()  returns FALSE (0000ms, 0697ms total)
T0CC8 002:455 JLINK_IsHalted() -- CPU_ReadMem(2 bytes @ 0x20000000)  returns TRUE (0007ms, 0704ms total)
T0CC8 002:462 JLINK_ReadReg(R15 (PC))  returns 0x20000000 (0000ms, 0697ms total)
T0CC8 002:463 JLINK_ClrBPEx(BPHandle = 0x00000002)  returns 0x00 (0000ms, 0698ms total)
T0CC8 002:463 JLINK_ReadReg(R0)  returns 0x00000000 (0000ms, 0698ms total)
T0CC8 002:464 JLINK_WriteMem(0x20000184, 0x027C Bytes, ...) - Data: 00 23 40 1C 59 41 52 00 0E D1 40 08 40 00 01 22 ... -- CPU_WriteMem(636 bytes @ 0x20000184)  returns 0x27C (0009ms, 0707ms total)
T0CC8 002:473 JLINK_WriteMem(0x20000400, 0x0184 Bytes, ...) - Data: 19 46 A8 02 41 40 10 46 7B E7 9C 42 01 D0 21 46 ... -- CPU_WriteMem(388 bytes @ 0x20000400)  returns 0x184 (0006ms, 0713ms total)
T0CC8 002:479 JLINK_WriteReg(R0, 0x00000400)  returns 0x00 (0000ms, 0713ms total)
T0CC8 002:479 JLINK_WriteReg(R1, 0x00000400)  returns 0x00 (0001ms, 0714ms total)
T0CC8 002:480 JLINK_WriteReg(R2, 0x20000184)  returns 0x00 (0000ms, 0714ms total)
T0CC8 002:480 JLINK_WriteReg(R3, 0x00000000)  returns 0x00 (0000ms, 0714ms total)
T0CC8 002:480 JLINK_WriteReg(R4, 0x00000000)  returns 0x00 (0000ms, 0714ms total)
T0CC8 002:480 JLINK_WriteReg(R5, 0x00000000)  returns 0x00 (0000ms, 0714ms total)
T0CC8 002:480 JLINK_WriteReg(R6, 0x00000000)  returns 0x00 (0000ms, 0714ms total)
T0CC8 002:480 JLINK_WriteReg(R7, 0x00000000)  returns 0x00 (0000ms, 0714ms total)
T0CC8 002:480 JLINK_WriteReg(R8, 0x00000000)  returns 0x00 (0000ms, 0714ms total)
T0CC8 002:480 JLINK_WriteReg(R9, 0x20000180)  returns 0x00 (0000ms, 0714ms total)
T0CC8 002:480 JLINK_WriteReg(R10, 0x00000000)  returns 0x00 (0000ms, 0714ms total)
T0CC8 002:480 JLINK_WriteReg(R11, 0x00000000)  returns 0x00 (0000ms, 0714ms total)
T0CC8 002:480 JLINK_WriteReg(R12, 0x00000000)  returns 0x00 (0000ms, 0714ms total)
T0CC8 002:480 JLINK_WriteReg(R13 (SP), 0x20001000)  returns 0x00 (0000ms, 0714ms total)
T0CC8 002:480 JLINK_WriteReg(R14, 0x20000001)  returns 0x00 (0000ms, 0714ms total)
T0CC8 002:480 JLINK_WriteReg(R15 (PC), 0x20000104)  returns 0x00 (0000ms, 0714ms total)
T0CC8 002:480 JLINK_WriteReg(XPSR, 0x01000000)  returns 0x00 (0000ms, 0714ms total)
T0CC8 002:480 JLINK_WriteReg(MSP, 0x20001000)  returns 0x00 (0000ms, 0714ms total)
T0CC8 002:480 JLINK_WriteReg(PSP, 0x20001000)  returns 0x00 (0000ms, 0714ms total)
T0CC8 002:480 JLINK_WriteReg(CFBP, 0x00000000)  returns 0x00 (0000ms, 0714ms total)
T0CC8 002:480 JLINK_SetBPEx(Addr = 0x20000000, Type = 0xFFFFFFF2)  returns 0x00000003 (0000ms, 0714ms total)
T0CC8 002:480 JLINK_Go() -- CPU_ReadMem(4 bytes @ 0xE0001000) -- CPU_WriteMem(4 bytes @ 0xE0001000) (0007ms, 0721ms total)
T0CC8 002:487 JLINK_IsHalted()  returns FALSE (0001ms, 0722ms total)
T0CC8 002:489 JLINK_IsHalted()  returns FALSE (0000ms, 0721ms total)
T0CC8 002:490 JLINK_IsHalted()  returns FALSE (0000ms, 0721ms total)
T0CC8 002:491 JLINK_IsHalted()  returns FALSE (0000ms, 0721ms total)
T0CC8 002:492 JLINK_IsHalted()  returns FALSE (0000ms, 0721ms total)
T0CC8 002:493 JLINK_IsHalted()  returns FALSE (0000ms, 0721ms total)
T0CC8 002:494 JLINK_IsHalted()  returns FALSE (0000ms, 0721ms total)
T0CC8 002:495 JLINK_IsHalted()  returns FALSE (0001ms, 0722ms total)
T0CC8 002:497 JLINK_IsHalted()  returns FALSE (0001ms, 0722ms total)
T0CC8 002:499 JLINK_IsHalted()  returns FALSE (0000ms, 0721ms total)
T0CC8 002:500 JLINK_IsHalted()  returns FALSE (0000ms, 0721ms total)
T0CC8 002:501 JLINK_IsHalted()  returns FALSE (0000ms, 0721ms total)
T0CC8 002:502 JLINK_IsHalted()  returns FALSE (0000ms, 0721ms total)
T0CC8 002:503 JLINK_IsHalted()  returns FALSE (0000ms, 0721ms total)
T0CC8 002:504 JLINK_IsHalted()  returns FALSE (0000ms, 0721ms total)
T0CC8 002:505 JLINK_IsHalted()  returns FALSE (0000ms, 0721ms total)
T0CC8 002:506 JLINK_IsHalted()  returns FALSE (0000ms, 0721ms total)
T0CC8 002:507 JLINK_IsHalted()  returns FALSE (0000ms, 0721ms total)
T0CC8 002:508 JLINK_IsHalted()  returns FALSE (0000ms, 0721ms total)
T0CC8 002:509 JLINK_IsHalted()  returns FALSE (0000ms, 0721ms total)
T0CC8 002:510 JLINK_IsHalted()  returns FALSE (0000ms, 0721ms total)
T0CC8 002:511 JLINK_IsHalted() -- CPU_ReadMem(2 bytes @ 0x20000000)  returns TRUE (0008ms, 0729ms total)
T0CC8 002:519 JLINK_ReadReg(R15 (PC))  returns 0x20000000 (0001ms, 0722ms total)
T0CC8 002:520 JLINK_ClrBPEx(BPHandle = 0x00000003)  returns 0x00 (0000ms, 0722ms total)
T0CC8 002:520 JLINK_ReadReg(R0)  returns 0x00000000 (0000ms, 0722ms total)
T0CC8 002:521 JLINK_WriteMem(0x20000184, 0x027C Bytes, ...) - Data: 7D 1B 01 E0 3E E1 62 E1 B4 41 09 04 00 95 07 91 ... -- CPU_WriteMem(636 bytes @ 0x20000184)  returns 0x27C (0009ms, 0731ms total)
T0CC8 002:530 JLINK_WriteMem(0x20000400, 0x0184 Bytes, ...) - Data: 3F D0 30 46 0B B0 F0 BD 06 18 0D 46 4D 41 17 4C ... -- CPU_WriteMem(388 bytes @ 0x20000400)  returns 0x184 (0007ms, 0738ms total)
T0CC8 002:537 JLINK_WriteReg(R0, 0x00000800)  returns 0x00 (0000ms, 0738ms total)
T0CC8 002:537 JLINK_WriteReg(R1, 0x00000400)  returns 0x00 (0000ms, 0738ms total)
T0CC8 002:537 JLINK_WriteReg(R2, 0x20000184)  returns 0x00 (0001ms, 0739ms total)
T0CC8 002:538 JLINK_WriteReg(R3, 0x00000000)  returns 0x00 (0000ms, 0739ms total)
T0CC8 002:538 JLINK_WriteReg(R4, 0x00000000)  returns 0x00 (0000ms, 0739ms total)
T0CC8 002:538 JLINK_WriteReg(R5, 0x00000000)  returns 0x00 (0000ms, 0739ms total)
T0CC8 002:538 JLINK_WriteReg(R6, 0x00000000)  returns 0x00 (0000ms, 0739ms total)
T0CC8 002:538 JLINK_WriteReg(R7, 0x00000000)  returns 0x00 (0000ms, 0739ms total)
T0CC8 002:538 JLINK_WriteReg(R8, 0x00000000)  returns 0x00 (0000ms, 0739ms total)
T0CC8 002:538 JLINK_WriteReg(R9, 0x20000180)  returns 0x00 (0000ms, 0739ms total)
T0CC8 002:538 JLINK_WriteReg(R10, 0x00000000)  returns 0x00 (0000ms, 0739ms total)
T0CC8 002:538 JLINK_WriteReg(R11, 0x00000000)  returns 0x00 (0000ms, 0739ms total)
T0CC8 002:538 JLINK_WriteReg(R12, 0x00000000)  returns 0x00 (0000ms, 0739ms total)
T0CC8 002:538 JLINK_WriteReg(R13 (SP), 0x20001000)  returns 0x00 (0000ms, 0739ms total)
T0CC8 002:538 JLINK_WriteReg(R14, 0x20000001)  returns 0x00 (0000ms, 0739ms total)
T0CC8 002:538 JLINK_WriteReg(R15 (PC), 0x20000104)  returns 0x00 (0000ms, 0739ms total)
T0CC8 002:538 JLINK_WriteReg(XPSR, 0x01000000)  returns 0x00 (0000ms, 0739ms total)
T0CC8 002:538 JLINK_WriteReg(MSP, 0x20001000)  returns 0x00 (0000ms, 0739ms total)
T0CC8 002:538 JLINK_WriteReg(PSP, 0x20001000)  returns 0x00 (0000ms, 0739ms total)
T0CC8 002:538 JLINK_WriteReg(CFBP, 0x00000000)  returns 0x00 (0000ms, 0739ms total)
T0CC8 002:538 JLINK_SetBPEx(Addr = 0x20000000, Type = 0xFFFFFFF2)  returns 0x00000004 (0000ms, 0739ms total)
T0CC8 002:538 JLINK_Go() -- CPU_ReadMem(4 bytes @ 0xE0001000) -- CPU_WriteMem(4 bytes @ 0xE0001000) (0007ms, 0746ms total)
T0CC8 002:546 JLINK_IsHalted()  returns FALSE (0001ms, 0747ms total)
T0CC8 002:551 JLINK_IsHalted()  returns FALSE (0001ms, 0747ms total)
T0CC8 002:553 JLINK_IsHalted()  returns FALSE (0000ms, 0746ms total)
T0CC8 002:554 JLINK_IsHalted()  returns FALSE (0000ms, 0746ms total)
T0CC8 002:555 JLINK_IsHalted()  returns FALSE (0001ms, 0747ms total)
T0CC8 002:557 JLINK_IsHalted()  returns FALSE (0001ms, 0747ms total)
T0CC8 002:559 JLINK_IsHalted()  returns FALSE (0001ms, 0747ms total)
T0CC8 002:561 JLINK_IsHalted()  returns FALSE (0000ms, 0746ms total)
T0CC8 002:562 JLINK_IsHalted()  returns FALSE (0000ms, 0746ms total)
T0CC8 002:563 JLINK_IsHalted()  returns FALSE (0000ms, 0746ms total)
T0CC8 002:564 JLINK_IsHalted()  returns FALSE (0000ms, 0746ms total)
T0CC8 002:565 JLINK_IsHalted()  returns FALSE (0000ms, 0746ms total)
T0CC8 002:566 JLINK_IsHalted()  returns FALSE (0000ms, 0746ms total)
T0CC8 002:567 JLINK_IsHalted()  returns FALSE (0000ms, 0746ms total)
T0CC8 002:568 JLINK_IsHalted()  returns FALSE (0000ms, 0746ms total)
T0CC8 002:569 JLINK_IsHalted() -- CPU_ReadMem(2 bytes @ 0x20000000)  returns TRUE (0007ms, 0753ms total)
T0CC8 002:576 JLINK_ReadReg(R15 (PC))  returns 0x20000000 (0000ms, 0746ms total)
T0CC8 002:577 JLINK_ClrBPEx(BPHandle = 0x00000004)  returns 0x00 (0000ms, 0747ms total)
T0CC8 002:577 JLINK_ReadReg(R0)  returns 0x00000000 (0000ms, 0747ms total)
T0CC8 002:578 JLINK_WriteMem(0x20000184, 0x027C Bytes, ...) - Data: 24 01 21 42 FB D0 FF 24 AD 19 A4 04 2D 1B 03 95 ... -- CPU_WriteMem(636 bytes @ 0x20000184)  returns 0x27C (0009ms, 0756ms total)
T0CC8 002:587 JLINK_WriteMem(0x20000400, 0x0184 Bytes, ...) - Data: 2D 04 C6 09 C2 09 FF 27 04 46 2E 40 01 37 CB 09 ... -- CPU_WriteMem(388 bytes @ 0x20000400)  returns 0x184 (0006ms, 0762ms total)
T0CC8 002:593 JLINK_WriteReg(R0, 0x00000C00)  returns 0x00 (0000ms, 0762ms total)
T0CC8 002:593 JLINK_WriteReg(R1, 0x00000400)  returns 0x00 (0000ms, 0762ms total)
T0CC8 002:593 JLINK_WriteReg(R2, 0x20000184)  returns 0x00 (0000ms, 0762ms total)
T0CC8 002:594 JLINK_WriteReg(R3, 0x00000000)  returns 0x00 (0000ms, 0762ms total)
T0CC8 002:594 JLINK_WriteReg(R4, 0x00000000)  returns 0x00 (0000ms, 0762ms total)
T0CC8 002:594 JLINK_WriteReg(R5, 0x00000000)  returns 0x00 (0000ms, 0762ms total)
T0CC8 002:594 JLINK_WriteReg(R6, 0x00000000)  returns 0x00 (0000ms, 0762ms total)
T0CC8 002:594 JLINK_WriteReg(R7, 0x00000000)  returns 0x00 (0000ms, 0762ms total)
T0CC8 002:594 JLINK_WriteReg(R8, 0x00000000)  returns 0x00 (0000ms, 0762ms total)
T0CC8 002:594 JLINK_WriteReg(R9, 0x20000180)  returns 0x00 (0000ms, 0762ms total)
T0CC8 002:594 JLINK_WriteReg(R10, 0x00000000)  returns 0x00 (0000ms, 0762ms total)
T0CC8 002:594 JLINK_WriteReg(R11, 0x00000000)  returns 0x00 (0000ms, 0762ms total)
T0CC8 002:594 JLINK_WriteReg(R12, 0x00000000)  returns 0x00 (0000ms, 0762ms total)
T0CC8 002:594 JLINK_WriteReg(R13 (SP), 0x20001000)  returns 0x00 (0000ms, 0762ms total)
T0CC8 002:594 JLINK_WriteReg(R14, 0x20000001)  returns 0x00 (0000ms, 0762ms total)
T0CC8 002:594 JLINK_WriteReg(R15 (PC), 0x20000104)  returns 0x00 (0000ms, 0762ms total)
T0CC8 002:594 JLINK_WriteReg(XPSR, 0x01000000)  returns 0x00 (0000ms, 0762ms total)
T0CC8 002:594 JLINK_WriteReg(MSP, 0x20001000)  returns 0x00 (0000ms, 0762ms total)
T0CC8 002:594 JLINK_WriteReg(PSP, 0x20001000)  returns 0x00 (0000ms, 0762ms total)
T0CC8 002:594 JLINK_WriteReg(CFBP, 0x00000000)  returns 0x00 (0000ms, 0762ms total)
T0CC8 002:594 JLINK_SetBPEx(Addr = 0x20000000, Type = 0xFFFFFFF2)  returns 0x00000005 (0000ms, 0762ms total)
T0CC8 002:594 JLINK_Go() -- CPU_ReadMem(4 bytes @ 0xE0001000) -- CPU_WriteMem(4 bytes @ 0xE0001000) (0007ms, 0769ms total)
T0CC8 002:601 JLINK_IsHalted()  returns FALSE (0001ms, 0770ms total)
T0CC8 002:603 JLINK_IsHalted()  returns FALSE (0000ms, 0769ms total)
T0CC8 002:604 JLINK_IsHalted()  returns FALSE (0001ms, 0770ms total)
T0CC8 002:606 JLINK_IsHalted()  returns FALSE (0000ms, 0769ms total)
T0CC8 002:607 JLINK_IsHalted()  returns FALSE (0000ms, 0769ms total)
T0CC8 002:608 JLINK_IsHalted()  returns FALSE (0000ms, 0769ms total)
T0CC8 002:609 JLINK_IsHalted()  returns FALSE (0000ms, 0769ms total)
T0CC8 002:610 JLINK_IsHalted()  returns FALSE (0000ms, 0769ms total)
T0CC8 002:611 JLINK_IsHalted()  returns FALSE (0001ms, 0770ms total)
T0CC8 002:613 JLINK_IsHalted()  returns FALSE (0000ms, 0769ms total)
T0CC8 002:614 JLINK_IsHalted()  returns FALSE (0000ms, 0769ms total)
T0CC8 002:615 JLINK_IsHalted()  returns FALSE (0000ms, 0769ms total)
T0CC8 002:616 JLINK_IsHalted()  returns FALSE (0000ms, 0769ms total)
T0CC8 002:617 JLINK_IsHalted()  returns FALSE (0000ms, 0769ms total)
T0CC8 002:618 JLINK_IsHalted()  returns FALSE (0000ms, 0769ms total)
T0CC8 002:619 JLINK_IsHalted()  returns FALSE (0000ms, 0769ms total)
T0CC8 002:620 JLINK_IsHalted()  returns FALSE (0000ms, 0769ms total)
T0CC8 002:621 JLINK_IsHalted()  returns FALSE (0000ms, 0769ms total)
T0CC8 002:622 JLINK_IsHalted()  returns FALSE (0000ms, 0769ms total)
T0CC8 002:623 JLINK_IsHalted()  returns FALSE (0000ms, 0769ms total)
T0CC8 002:624 JLINK_IsHalted()  returns FALSE (0000ms, 0769ms total)
T0CC8 002:625 JLINK_IsHalted() -- CPU_ReadMem(2 bytes @ 0x20000000)  returns TRUE (0007ms, 0776ms total)
T0CC8 002:632 JLINK_ReadReg(R15 (PC))  returns 0x20000000 (0000ms, 0769ms total)
T0CC8 002:633 JLINK_ClrBPEx(BPHandle = 0x00000005)  returns 0x00 (0000ms, 0769ms total)
T0CC8 002:633 JLINK_ReadReg(R0)  returns 0x00000000 (0000ms, 0769ms total)
T0CC8 002:633 JLINK_WriteMem(0x20000184, 0x027C Bytes, ...) - Data: 70 47 C0 17 C0 43 70 47 1F 22 03 0C 02 D1 0F 22 ... -- CPU_WriteMem(636 bytes @ 0x20000184)  returns 0x27C (0010ms, 0779ms total)
T0CC8 002:643 JLINK_WriteMem(0x20000400, 0x0184 Bytes, ...) - Data: 06 00 00 01 08 00 00 02 10 B5 01 21 0A 48 02 F0 ... -- CPU_WriteMem(388 bytes @ 0x20000400)  returns 0x184 (0006ms, 0785ms total)
T0CC8 002:649 JLINK_WriteReg(R0, 0x00001000)  returns 0x00 (0000ms, 0785ms total)
T0CC8 002:649 JLINK_WriteReg(R1, 0x00000400)  returns 0x00 (0000ms, 0785ms total)
T0CC8 002:649 JLINK_WriteReg(R2, 0x20000184)  returns 0x00 (0000ms, 0785ms total)
T0CC8 002:650 JLINK_WriteReg(R3, 0x00000000)  returns 0x00 (0000ms, 0786ms total)
T0CC8 002:650 JLINK_WriteReg(R4, 0x00000000)  returns 0x00 (0000ms, 0786ms total)
T0CC8 002:650 JLINK_WriteReg(R5, 0x00000000)  returns 0x00 (0000ms, 0786ms total)
T0CC8 002:650 JLINK_WriteReg(R6, 0x00000000)  returns 0x00 (0000ms, 0786ms total)
T0CC8 002:650 JLINK_WriteReg(R7, 0x00000000)  returns 0x00 (0000ms, 0786ms total)
T0CC8 002:650 JLINK_WriteReg(R8, 0x00000000)  returns 0x00 (0000ms, 0786ms total)
T0CC8 002:650 JLINK_WriteReg(R9, 0x20000180)  returns 0x00 (0000ms, 0786ms total)
T0CC8 002:650 JLINK_WriteReg(R10, 0x00000000)  returns 0x00 (0000ms, 0786ms total)
T0CC8 002:650 JLINK_WriteReg(R11, 0x00000000)  returns 0x00 (0000ms, 0786ms total)
T0CC8 002:650 JLINK_WriteReg(R12, 0x00000000)  returns 0x00 (0000ms, 0786ms total)
T0CC8 002:650 JLINK_WriteReg(R13 (SP), 0x20001000)  returns 0x00 (0000ms, 0786ms total)
T0CC8 002:650 JLINK_WriteReg(R14, 0x20000001)  returns 0x00 (0000ms, 0786ms total)
T0CC8 002:650 JLINK_WriteReg(R15 (PC), 0x20000104)  returns 0x00 (0000ms, 0786ms total)
T0CC8 002:650 JLINK_WriteReg(XPSR, 0x01000000)  returns 0x00 (0000ms, 0786ms total)
T0CC8 002:650 JLINK_WriteReg(MSP, 0x20001000)  returns 0x00 (0000ms, 0786ms total)
T0CC8 002:650 JLINK_WriteReg(PSP, 0x20001000)  returns 0x00 (0000ms, 0786ms total)
T0CC8 002:650 JLINK_WriteReg(CFBP, 0x00000000)  returns 0x00 (0000ms, 0786ms total)
T0CC8 002:650 JLINK_SetBPEx(Addr = 0x20000000, Type = 0xFFFFFFF2)  returns 0x00000006 (0000ms, 0786ms total)
T0CC8 002:650 JLINK_Go() -- CPU_ReadMem(4 bytes @ 0xE0001000) -- CPU_WriteMem(4 bytes @ 0xE0001000) (0007ms, 0793ms total)
T0CC8 002:657 JLINK_IsHalted()  returns FALSE (0001ms, 0794ms total)
T0CC8 002:662 JLINK_IsHalted()  returns FALSE (0001ms, 0794ms total)
T0CC8 002:664 JLINK_IsHalted()  returns FALSE (0001ms, 0794ms total)
T0CC8 002:666 JLINK_IsHalted()  returns FALSE (0001ms, 0794ms total)
T0CC8 002:668 JLINK_IsHalted()  returns FALSE (0001ms, 0794ms total)
T0CC8 002:670 JLINK_IsHalted()  returns FALSE (0001ms, 0794ms total)
T0CC8 002:672 JLINK_IsHalted()  returns FALSE (0000ms, 0793ms total)
T0CC8 002:673 JLINK_IsHalted()  returns FALSE (0000ms, 0793ms total)
T0CC8 002:674 JLINK_IsHalted()  returns FALSE (0000ms, 0793ms total)
T0CC8 002:675 JLINK_IsHalted()  returns FALSE (0000ms, 0793ms total)
T0CC8 002:676 JLINK_IsHalted()  returns FALSE (0001ms, 0794ms total)
T0CC8 002:678 JLINK_IsHalted()  returns FALSE (0000ms, 0793ms total)
T0CC8 002:679 JLINK_IsHalted()  returns FALSE (0000ms, 0793ms total)
T0CC8 002:680 JLINK_IsHalted()  returns FALSE (0000ms, 0793ms total)
T0CC8 002:681 JLINK_IsHalted() -- CPU_ReadMem(2 bytes @ 0x20000000)  returns TRUE (0007ms, 0800ms total)
T0CC8 002:688 JLINK_ReadReg(R15 (PC))  returns 0x20000000 (0000ms, 0793ms total)
T0CC8 002:689 JLINK_ClrBPEx(BPHandle = 0x00000006)  returns 0x00 (0000ms, 0794ms total)
T0CC8 002:689 JLINK_ReadReg(R0)  returns 0x00000000 (0000ms, 0794ms total)
T0CC8 002:690 JLINK_WriteMem(0x20000184, 0x027C Bytes, ...) - Data: 91 62 70 47 00 28 01 40 01 46 05 4A 90 6A 00 09 ... -- CPU_WriteMem(636 bytes @ 0x20000184)  returns 0x27C (0009ms, 0803ms total)
T0CC8 002:699 JLINK_WriteMem(0x20000400, 0x0184 Bytes, ...) - Data: 88 42 77 DA 4E 49 0A 98 03 F0 4C FC 02 D8 00 20 ... -- CPU_WriteMem(388 bytes @ 0x20000400)  returns 0x184 (0006ms, 0809ms total)
T0CC8 002:705 JLINK_WriteReg(R0, 0x00001400)  returns 0x00 (0000ms, 0809ms total)
T0CC8 002:705 JLINK_WriteReg(R1, 0x00000400)  returns 0x00 (0000ms, 0809ms total)
T0CC8 002:705 JLINK_WriteReg(R2, 0x20000184)  returns 0x00 (0001ms, 0810ms total)
T0CC8 002:706 JLINK_WriteReg(R3, 0x00000000)  returns 0x00 (0000ms, 0810ms total)
T0CC8 002:706 JLINK_WriteReg(R4, 0x00000000)  returns 0x00 (0000ms, 0810ms total)
T0CC8 002:706 JLINK_WriteReg(R5, 0x00000000)  returns 0x00 (0000ms, 0810ms total)
T0CC8 002:706 JLINK_WriteReg(R6, 0x00000000)  returns 0x00 (0000ms, 0810ms total)
T0CC8 002:706 JLINK_WriteReg(R7, 0x00000000)  returns 0x00 (0000ms, 0810ms total)
T0CC8 002:706 JLINK_WriteReg(R8, 0x00000000)  returns 0x00 (0000ms, 0810ms total)
T0CC8 002:706 JLINK_WriteReg(R9, 0x20000180)  returns 0x00 (0000ms, 0810ms total)
T0CC8 002:706 JLINK_WriteReg(R10, 0x00000000)  returns 0x00 (0000ms, 0810ms total)
T0CC8 002:706 JLINK_WriteReg(R11, 0x00000000)  returns 0x00 (0000ms, 0810ms total)
T0CC8 002:706 JLINK_WriteReg(R12, 0x00000000)  returns 0x00 (0000ms, 0810ms total)
T0CC8 002:706 JLINK_WriteReg(R13 (SP), 0x20001000)  returns 0x00 (0000ms, 0810ms total)
T0CC8 002:706 JLINK_WriteReg(R14, 0x20000001)  returns 0x00 (0000ms, 0810ms total)
T0CC8 002:706 JLINK_WriteReg(R15 (PC), 0x20000104)  returns 0x00 (0000ms, 0810ms total)
T0CC8 002:706 JLINK_WriteReg(XPSR, 0x01000000)  returns 0x00 (0000ms, 0810ms total)
T0CC8 002:706 JLINK_WriteReg(MSP, 0x20001000)  returns 0x00 (0000ms, 0810ms total)
T0CC8 002:706 JLINK_WriteReg(PSP, 0x20001000)  returns 0x00 (0000ms, 0810ms total)
T0CC8 002:706 JLINK_WriteReg(CFBP, 0x00000000)  returns 0x00 (0000ms, 0810ms total)
T0CC8 002:706 JLINK_SetBPEx(Addr = 0x20000000, Type = 0xFFFFFFF2)  returns 0x00000007 (0000ms, 0810ms total)
T0CC8 002:706 JLINK_Go() -- CPU_ReadMem(4 bytes @ 0xE0001000) -- CPU_WriteMem(4 bytes @ 0xE0001000) (0007ms, 0817ms total)
T0CC8 002:714 JLINK_IsHalted()  returns FALSE (0001ms, 0818ms total)
T0CC8 002:719 JLINK_IsHalted()  returns FALSE (0001ms, 0818ms total)
T0CC8 002:721 JLINK_IsHalted()  returns FALSE (0001ms, 0818ms total)
T0CC8 002:723 JLINK_IsHalted()  returns FALSE (0000ms, 0817ms total)
T0CC8 002:724 JLINK_IsHalted()  returns FALSE (0000ms, 0817ms total)
T0CC8 002:725 JLINK_IsHalted()  returns FALSE (0001ms, 0818ms total)
T0CC8 002:727 JLINK_IsHalted()  returns FALSE (0000ms, 0817ms total)
T0CC8 002:728 JLINK_IsHalted()  returns FALSE (0001ms, 0818ms total)
T0CC8 002:733 JLINK_IsHalted()  returns FALSE (0001ms, 0818ms total)
T0CC8 002:735 JLINK_IsHalted()  returns FALSE (0001ms, 0818ms total)
T0CC8 002:737 JLINK_IsHalted() -- CPU_ReadMem(2 bytes @ 0x20000000)  returns TRUE (0007ms, 0824ms total)
T0CC8 002:744 JLINK_ReadReg(R15 (PC))  returns 0x20000000 (0000ms, 0817ms total)
T0CC8 002:745 JLINK_ClrBPEx(BPHandle = 0x00000007)  returns 0x00 (0000ms, 0817ms total)
T0CC8 002:745 JLINK_ReadReg(R0)  returns 0x00000000 (0000ms, 0817ms total)
T0CC8 002:745 JLINK_WriteMem(0x20000184, 0x027C Bytes, ...) - Data: 05 49 30 46 03 F0 B6 FB 07 46 04 49 FF F7 34 FB ... -- CPU_WriteMem(636 bytes @ 0x20000184)  returns 0x27C (0010ms, 0827ms total)
T0CC8 002:755 JLINK_WriteMem(0x20000400, 0x0184 Bytes, ...) - Data: 02 21 41 64 07 20 18 49 08 60 00 20 88 60 48 60 ... -- CPU_WriteMem(388 bytes @ 0x20000400)  returns 0x184 (0006ms, 0833ms total)
T0CC8 002:761 JLINK_WriteReg(R0, 0x00001800)  returns 0x00 (0000ms, 0833ms total)
T0CC8 002:761 JLINK_WriteReg(R1, 0x00000400)  returns 0x00 (0000ms, 0833ms total)
T0CC8 002:761 JLINK_WriteReg(R2, 0x20000184)  returns 0x00 (0000ms, 0833ms total)
T0CC8 002:761 JLINK_WriteReg(R3, 0x00000000)  returns 0x00 (0001ms, 0834ms total)
T0CC8 002:762 JLINK_WriteReg(R4, 0x00000000)  returns 0x00 (0000ms, 0834ms total)
T0CC8 002:762 JLINK_WriteReg(R5, 0x00000000)  returns 0x00 (0000ms, 0834ms total)
T0CC8 002:762 JLINK_WriteReg(R6, 0x00000000)  returns 0x00 (0000ms, 0834ms total)
T0CC8 002:762 JLINK_WriteReg(R7, 0x00000000)  returns 0x00 (0000ms, 0834ms total)
T0CC8 002:762 JLINK_WriteReg(R8, 0x00000000)  returns 0x00 (0000ms, 0834ms total)
T0CC8 002:762 JLINK_WriteReg(R9, 0x20000180)  returns 0x00 (0000ms, 0834ms total)
T0CC8 002:762 JLINK_WriteReg(R10, 0x00000000)  returns 0x00 (0000ms, 0834ms total)
T0CC8 002:762 JLINK_WriteReg(R11, 0x00000000)  returns 0x00 (0000ms, 0834ms total)
T0CC8 002:762 JLINK_WriteReg(R12, 0x00000000)  returns 0x00 (0000ms, 0834ms total)
T0CC8 002:762 JLINK_WriteReg(R13 (SP), 0x20001000)  returns 0x00 (0000ms, 0834ms total)
T0CC8 002:762 JLINK_WriteReg(R14, 0x20000001)  returns 0x00 (0000ms, 0834ms total)
T0CC8 002:762 JLINK_WriteReg(R15 (PC), 0x20000104)  returns 0x00 (0000ms, 0834ms total)
T0CC8 002:762 JLINK_WriteReg(XPSR, 0x01000000)  returns 0x00 (0000ms, 0834ms total)
T0CC8 002:762 JLINK_WriteReg(MSP, 0x20001000)  returns 0x00 (0000ms, 0834ms total)
T0CC8 002:762 JLINK_WriteReg(PSP, 0x20001000)  returns 0x00 (0000ms, 0834ms total)
T0CC8 002:762 JLINK_WriteReg(CFBP, 0x00000000)  returns 0x00 (0000ms, 0834ms total)
T0CC8 002:762 JLINK_SetBPEx(Addr = 0x20000000, Type = 0xFFFFFFF2)  returns 0x00000008 (0000ms, 0834ms total)
T0CC8 002:762 JLINK_Go() -- CPU_ReadMem(4 bytes @ 0xE0001000) -- CPU_WriteMem(4 bytes @ 0xE0001000) (0007ms, 0841ms total)
T0CC8 002:769 JLINK_IsHalted()  returns FALSE (0001ms, 0842ms total)
T0CC8 002:771 JLINK_IsHalted()  returns FALSE (0001ms, 0842ms total)
T0CC8 002:773 JLINK_IsHalted()  returns FALSE (0000ms, 0841ms total)
T0CC8 002:774 JLINK_IsHalted()  returns FALSE (0000ms, 0841ms total)
T0CC8 002:775 JLINK_IsHalted()  returns FALSE (0000ms, 0841ms total)
T0CC8 002:776 JLINK_IsHalted()  returns FALSE (0001ms, 0842ms total)
T0CC8 002:778 JLINK_IsHalted()  returns FALSE (0001ms, 0842ms total)
T0CC8 002:780 JLINK_IsHalted()  returns FALSE (0001ms, 0842ms total)
T0CC8 002:782 JLINK_IsHalted()  returns FALSE (0001ms, 0842ms total)
T0CC8 002:784 JLINK_IsHalted()  returns FALSE (0001ms, 0842ms total)
T0CC8 002:786 JLINK_IsHalted()  returns FALSE (0000ms, 0841ms total)
T0CC8 002:787 JLINK_IsHalted()  returns FALSE (0001ms, 0842ms total)
T0CC8 002:789 JLINK_IsHalted()  returns FALSE (0000ms, 0841ms total)
T0CC8 002:790 JLINK_IsHalted()  returns FALSE (0001ms, 0842ms total)
T0CC8 002:792 JLINK_IsHalted()  returns FALSE (0001ms, 0842ms total)
T0CC8 002:794 JLINK_IsHalted() -- CPU_ReadMem(2 bytes @ 0x20000000)  returns TRUE (0007ms, 0848ms total)
T0CC8 002:801 JLINK_ReadReg(R15 (PC))  returns 0x20000000 (0000ms, 0841ms total)
T0CC8 002:801 JLINK_ClrBPEx(BPHandle = 0x00000008)  returns 0x00 (0001ms, 0842ms total)
T0CC8 002:802 JLINK_ReadReg(R0)  returns 0x00000000 (0000ms, 0842ms total)
T0CC8 002:803 JLINK_WriteMem(0x20000184, 0x027C Bytes, ...) - Data: 13 40 19 43 01 60 10 BD 01 29 04 D1 02 68 80 23 ... -- CPU_WriteMem(636 bytes @ 0x20000184)  returns 0x27C (0009ms, 0851ms total)
T0CC8 002:812 JLINK_WriteMem(0x20000400, 0x0184 Bytes, ...) - Data: E1 6E FF F7 56 FF 28 46 21 6F FF F7 5E FF 28 46 ... -- CPU_WriteMem(388 bytes @ 0x20000400)  returns 0x184 (0006ms, 0857ms total)
T0CC8 002:818 JLINK_WriteReg(R0, 0x00001C00)  returns 0x00 (0000ms, 0857ms total)
T0CC8 002:818 JLINK_WriteReg(R1, 0x00000400)  returns 0x00 (0000ms, 0857ms total)
T0CC8 002:818 JLINK_WriteReg(R2, 0x20000184)  returns 0x00 (0000ms, 0857ms total)
T0CC8 002:818 JLINK_WriteReg(R3, 0x00000000)  returns 0x00 (0001ms, 0858ms total)
T0CC8 002:819 JLINK_WriteReg(R4, 0x00000000)  returns 0x00 (0000ms, 0858ms total)
T0CC8 002:819 JLINK_WriteReg(R5, 0x00000000)  returns 0x00 (0000ms, 0858ms total)
T0CC8 002:819 JLINK_WriteReg(R6, 0x00000000)  returns 0x00 (0000ms, 0858ms total)
T0CC8 002:819 JLINK_WriteReg(R7, 0x00000000)  returns 0x00 (0000ms, 0858ms total)
T0CC8 002:819 JLINK_WriteReg(R8, 0x00000000)  returns 0x00 (0000ms, 0858ms total)
T0CC8 002:819 JLINK_WriteReg(R9, 0x20000180)  returns 0x00 (0000ms, 0858ms total)
T0CC8 002:819 JLINK_WriteReg(R10, 0x00000000)  returns 0x00 (0000ms, 0858ms total)
T0CC8 002:819 JLINK_WriteReg(R11, 0x00000000)  returns 0x00 (0000ms, 0858ms total)
T0CC8 002:819 JLINK_WriteReg(R12, 0x00000000)  returns 0x00 (0000ms, 0858ms total)
T0CC8 002:819 JLINK_WriteReg(R13 (SP), 0x20001000)  returns 0x00 (0000ms, 0858ms total)
T0CC8 002:819 JLINK_WriteReg(R14, 0x20000001)  returns 0x00 (0000ms, 0858ms total)
T0CC8 002:819 JLINK_WriteReg(R15 (PC), 0x20000104)  returns 0x00 (0000ms, 0858ms total)
T0CC8 002:819 JLINK_WriteReg(XPSR, 0x01000000)  returns 0x00 (0000ms, 0858ms total)
T0CC8 002:819 JLINK_WriteReg(MSP, 0x20001000)  returns 0x00 (0000ms, 0858ms total)
T0CC8 002:819 JLINK_WriteReg(PSP, 0x20001000)  returns 0x00 (0000ms, 0858ms total)
T0CC8 002:819 JLINK_WriteReg(CFBP, 0x00000000)  returns 0x00 (0000ms, 0858ms total)
T0CC8 002:819 JLINK_SetBPEx(Addr = 0x20000000, Type = 0xFFFFFFF2)  returns 0x00000009 (0000ms, 0858ms total)
T0CC8 002:819 JLINK_Go() -- CPU_ReadMem(4 bytes @ 0xE0001000) -- CPU_WriteMem(4 bytes @ 0xE0001000) (0007ms, 0865ms total)
T0CC8 002:826 JLINK_IsHalted()  returns FALSE (0001ms, 0866ms total)
T0CC8 002:828 JLINK_IsHalted()  returns FALSE (0000ms, 0865ms total)
T0CC8 002:829 JLINK_IsHalted()  returns FALSE (0001ms, 0866ms total)
T0CC8 002:831 JLINK_IsHalted()  returns FALSE (0001ms, 0866ms total)
T0CC8 002:833 JLINK_IsHalted()  returns FALSE (0000ms, 0865ms total)
T0CC8 002:834 JLINK_IsHalted()  returns FALSE (0001ms, 0866ms total)
T0CC8 002:836 JLINK_IsHalted()  returns FALSE (0001ms, 0866ms total)
T0CC8 002:838 JLINK_IsHalted()  returns FALSE (0000ms, 0865ms total)
T0CC8 002:839 JLINK_IsHalted()  returns FALSE (0000ms, 0865ms total)
T0CC8 002:840 JLINK_IsHalted()  returns FALSE (0000ms, 0865ms total)
T0CC8 002:841 JLINK_IsHalted()  returns FALSE (0001ms, 0866ms total)
T0CC8 002:846 JLINK_IsHalted()  returns FALSE (0001ms, 0866ms total)
T0CC8 002:848 JLINK_IsHalted()  returns FALSE (0001ms, 0866ms total)
T0CC8 002:850 JLINK_IsHalted() -- CPU_ReadMem(2 bytes @ 0x20000000)  returns TRUE (0008ms, 0873ms total)
T0CC8 002:858 JLINK_ReadReg(R15 (PC))  returns 0x20000000 (0000ms, 0865ms total)
T0CC8 002:859 JLINK_ClrBPEx(BPHandle = 0x00000009)  returns 0x00 (0000ms, 0866ms total)
T0CC8 002:859 JLINK_ReadReg(R0)  returns 0x00000000 (0000ms, 0866ms total)
T0CC8 002:860 JLINK_WriteMem(0x20000184, 0x027C Bytes, ...) - Data: 01 21 C9 02 7A 48 20 30 00 F0 D8 F9 01 21 09 03 ... -- CPU_WriteMem(636 bytes @ 0x20000184)  returns 0x27C (0009ms, 0875ms total)
T0CC8 002:869 JLINK_WriteMem(0x20000400, 0x0184 Bytes, ...) - Data: 4E 48 40 30 00 F0 9C F8 40 21 4C 48 40 30 00 F0 ... -- CPU_WriteMem(388 bytes @ 0x20000400)  returns 0x184 (0007ms, 0882ms total)
T0CC8 002:876 JLINK_WriteReg(R0, 0x00002000)  returns 0x00 (0000ms, 0882ms total)
T0CC8 002:876 JLINK_WriteReg(R1, 0x00000400)  returns 0x00 (0000ms, 0882ms total)
T0CC8 002:876 JLINK_WriteReg(R2, 0x20000184)  returns 0x00 (0001ms, 0883ms total)
T0CC8 002:877 JLINK_WriteReg(R3, 0x00000000)  returns 0x00 (0000ms, 0883ms total)
T0CC8 002:877 JLINK_WriteReg(R4, 0x00000000)  returns 0x00 (0000ms, 0883ms total)
T0CC8 002:877 JLINK_WriteReg(R5, 0x00000000)  returns 0x00 (0000ms, 0883ms total)
T0CC8 002:877 JLINK_WriteReg(R6, 0x00000000)  returns 0x00 (0000ms, 0883ms total)
T0CC8 002:877 JLINK_WriteReg(R7, 0x00000000)  returns 0x00 (0000ms, 0883ms total)
T0CC8 002:877 JLINK_WriteReg(R8, 0x00000000)  returns 0x00 (0000ms, 0883ms total)
T0CC8 002:877 JLINK_WriteReg(R9, 0x20000180)  returns 0x00 (0000ms, 0883ms total)
T0CC8 002:877 JLINK_WriteReg(R10, 0x00000000)  returns 0x00 (0000ms, 0883ms total)
T0CC8 002:877 JLINK_WriteReg(R11, 0x00000000)  returns 0x00 (0000ms, 0883ms total)
T0CC8 002:877 JLINK_WriteReg(R12, 0x00000000)  returns 0x00 (0000ms, 0883ms total)
T0CC8 002:877 JLINK_WriteReg(R13 (SP), 0x20001000)  returns 0x00 (0000ms, 0883ms total)
T0CC8 002:877 JLINK_WriteReg(R14, 0x20000001)  returns 0x00 (0000ms, 0883ms total)
T0CC8 002:877 JLINK_WriteReg(R15 (PC), 0x20000104)  returns 0x00 (0000ms, 0883ms total)
T0CC8 002:877 JLINK_WriteReg(XPSR, 0x01000000)  returns 0x00 (0000ms, 0883ms total)
T0CC8 002:877 JLINK_WriteReg(MSP, 0x20001000)  returns 0x00 (0000ms, 0883ms total)
T0CC8 002:877 JLINK_WriteReg(PSP, 0x20001000)  returns 0x00 (0000ms, 0883ms total)
T0CC8 002:877 JLINK_WriteReg(CFBP, 0x00000000)  returns 0x00 (0000ms, 0883ms total)
T0CC8 002:877 JLINK_SetBPEx(Addr = 0x20000000, Type = 0xFFFFFFF2)  returns 0x0000000A (0000ms, 0883ms total)
T0CC8 002:877 JLINK_Go() -- CPU_ReadMem(4 bytes @ 0xE0001000) -- CPU_WriteMem(4 bytes @ 0xE0001000) (0007ms, 0890ms total)
T0CC8 002:884 JLINK_IsHalted()  returns FALSE (0002ms, 0892ms total)
T0CC8 002:887 JLINK_IsHalted()  returns FALSE (0001ms, 0891ms total)
T0CC8 002:889 JLINK_IsHalted()  returns FALSE (0001ms, 0891ms total)
T0CC8 002:891 JLINK_IsHalted()  returns FALSE (0001ms, 0891ms total)
T0CC8 002:893 JLINK_IsHalted()  returns FALSE (0000ms, 0890ms total)
T0CC8 002:894 JLINK_IsHalted()  returns FALSE (0001ms, 0891ms total)
T0CC8 002:896 JLINK_IsHalted()  returns FALSE (0001ms, 0891ms total)
T0CC8 002:898 JLINK_IsHalted()  returns FALSE (0001ms, 0891ms total)
T0CC8 002:900 JLINK_IsHalted()  returns FALSE (0000ms, 0890ms total)
T0CC8 002:901 JLINK_IsHalted()  returns FALSE (0001ms, 0891ms total)
T0CC8 002:903 JLINK_IsHalted()  returns FALSE (0001ms, 0891ms total)
T0CC8 002:905 JLINK_IsHalted()  returns FALSE (0001ms, 0891ms total)
T0CC8 002:907 JLINK_IsHalted()  returns FALSE (0001ms, 0891ms total)
T0CC8 002:909 JLINK_IsHalted() -- CPU_ReadMem(2 bytes @ 0x20000000)  returns TRUE (0008ms, 0898ms total)
T0CC8 002:917 JLINK_ReadReg(R15 (PC))  returns 0x20000000 (0000ms, 0890ms total)
T0CC8 002:917 JLINK_ClrBPEx(BPHandle = 0x0000000A)  returns 0x00 (0001ms, 0891ms total)
T0CC8 002:918 JLINK_ReadReg(R0)  returns 0x00000000 (0000ms, 0891ms total)
T0CC8 002:919 JLINK_WriteMem(0x20000184, 0x027C Bytes, ...) - Data: 00 F0 14 F9 01 28 56 D1 2B 48 00 F0 19 F9 2B 48 ... -- CPU_WriteMem(636 bytes @ 0x20000184)  returns 0x27C (0009ms, 0900ms total)
T0CC8 002:928 JLINK_WriteMem(0x20000400, 0x0184 Bytes, ...) - Data: 19 46 40 23 13 40 19 43 41 60 10 BD 10 B5 0A 46 ... -- CPU_WriteMem(388 bytes @ 0x20000400)  returns 0x184 (0006ms, 0906ms total)
T0CC8 002:934 JLINK_WriteReg(R0, 0x00002400)  returns 0x00 (0000ms, 0906ms total)
T0CC8 002:934 JLINK_WriteReg(R1, 0x00000400)  returns 0x00 (0000ms, 0906ms total)
T0CC8 002:934 JLINK_WriteReg(R2, 0x20000184)  returns 0x00 (0001ms, 0907ms total)
T0CC8 002:935 JLINK_WriteReg(R3, 0x00000000)  returns 0x00 (0000ms, 0907ms total)
T0CC8 002:935 JLINK_WriteReg(R4, 0x00000000)  returns 0x00 (0000ms, 0907ms total)
T0CC8 002:935 JLINK_WriteReg(R5, 0x00000000)  returns 0x00 (0000ms, 0907ms total)
T0CC8 002:935 JLINK_WriteReg(R6, 0x00000000)  returns 0x00 (0000ms, 0907ms total)
T0CC8 002:935 JLINK_WriteReg(R7, 0x00000000)  returns 0x00 (0000ms, 0907ms total)
T0CC8 002:935 JLINK_WriteReg(R8, 0x00000000)  returns 0x00 (0000ms, 0907ms total)
T0CC8 002:935 JLINK_WriteReg(R9, 0x20000180)  returns 0x00 (0000ms, 0907ms total)
T0CC8 002:935 JLINK_WriteReg(R10, 0x00000000)  returns 0x00 (0000ms, 0907ms total)
T0CC8 002:935 JLINK_WriteReg(R11, 0x00000000)  returns 0x00 (0000ms, 0907ms total)
T0CC8 002:935 JLINK_WriteReg(R12, 0x00000000)  returns 0x00 (0000ms, 0907ms total)
T0CC8 002:935 JLINK_WriteReg(R13 (SP), 0x20001000)  returns 0x00 (0000ms, 0907ms total)
T0CC8 002:935 JLINK_WriteReg(R14, 0x20000001)  returns 0x00 (0000ms, 0907ms total)
T0CC8 002:935 JLINK_WriteReg(R15 (PC), 0x20000104)  returns 0x00 (0000ms, 0907ms total)
T0CC8 002:935 JLINK_WriteReg(XPSR, 0x01000000)  returns 0x00 (0000ms, 0907ms total)
T0CC8 002:935 JLINK_WriteReg(MSP, 0x20001000)  returns 0x00 (0000ms, 0907ms total)
T0CC8 002:935 JLINK_WriteReg(PSP, 0x20001000)  returns 0x00 (0000ms, 0907ms total)
T0CC8 002:935 JLINK_WriteReg(CFBP, 0x00000000)  returns 0x00 (0000ms, 0907ms total)
T0CC8 002:935 JLINK_SetBPEx(Addr = 0x20000000, Type = 0xFFFFFFF2)  returns 0x0000000B (0000ms, 0907ms total)
T0CC8 002:935 JLINK_Go() -- CPU_ReadMem(4 bytes @ 0xE0001000) -- CPU_WriteMem(4 bytes @ 0xE0001000) (0007ms, 0914ms total)
T0CC8 002:942 JLINK_IsHalted()  returns FALSE (0001ms, 0915ms total)
T0CC8 002:944 JLINK_IsHalted()  returns FALSE (0001ms, 0915ms total)
T0CC8 002:946 JLINK_IsHalted()  returns FALSE (0001ms, 0915ms total)
T0CC8 002:951 JLINK_IsHalted()  returns FALSE (0001ms, 0915ms total)
T0CC8 002:953 JLINK_IsHalted()  returns FALSE (0001ms, 0915ms total)
T0CC8 002:955 JLINK_IsHalted()  returns FALSE (0001ms, 0915ms total)
T0CC8 002:957 JLINK_IsHalted()  returns FALSE (0001ms, 0915ms total)
T0CC8 002:959 JLINK_IsHalted()  returns FALSE (0001ms, 0915ms total)
T0CC8 002:961 JLINK_IsHalted()  returns FALSE (0001ms, 0915ms total)
T0CC8 002:963 JLINK_IsHalted()  returns FALSE (0001ms, 0915ms total)
T0CC8 002:965 JLINK_IsHalted()  returns FALSE (0001ms, 0915ms total)
T0CC8 002:967 JLINK_IsHalted() -- CPU_ReadMem(2 bytes @ 0x20000000)  returns TRUE (0008ms, 0922ms total)
T0CC8 002:975 JLINK_ReadReg(R15 (PC))  returns 0x20000000 (0000ms, 0914ms total)
T0CC8 002:975 JLINK_ClrBPEx(BPHandle = 0x0000000B)  returns 0x00 (0001ms, 0915ms total)
T0CC8 002:976 JLINK_ReadReg(R0)  returns 0x00000000 (0000ms, 0915ms total)
T0CC8 002:976 JLINK_WriteMem(0x20000184, 0x027C Bytes, ...) - Data: 01 4A 10 60 70 47 00 00 00 0D 00 40 01 46 06 4A ... -- CPU_WriteMem(636 bytes @ 0x20000184)  returns 0x27C (0010ms, 0925ms total)
T0CC8 002:986 JLINK_WriteMem(0x20000400, 0x0184 Bytes, ...) - Data: 00 21 13 20 FF F7 60 FF 00 21 12 20 FF F7 5C FF ... -- CPU_WriteMem(388 bytes @ 0x20000400)  returns 0x184 (0006ms, 0931ms total)
T0CC8 002:992 JLINK_WriteReg(R0, 0x00002800)  returns 0x00 (0000ms, 0931ms total)
T0CC8 002:992 JLINK_WriteReg(R1, 0x00000400)  returns 0x00 (0000ms, 0931ms total)
T0CC8 002:992 JLINK_WriteReg(R2, 0x20000184)  returns 0x00 (0000ms, 0931ms total)
T0CC8 002:992 JLINK_WriteReg(R3, 0x00000000)  returns 0x00 (0001ms, 0932ms total)
T0CC8 002:993 JLINK_WriteReg(R4, 0x00000000)  returns 0x00 (0000ms, 0932ms total)
